=== DÉMARRAGE SERVEUR 2026-03-27 15:29:07 ===
[2026-03-27 15:31:58.848] === DEBUG ACTIVÉ ===
[2026-03-27 15:31:58.851] 📤 READ REG 0x0006 | Trame: 06 03 00 06 00 01 65 BC
[2026-03-27 15:31:58.991] 📥 READ REG 0x0006 | Réponse: 06 03 02 00 E8 0D CA
[2026-03-27 15:31:58.991] 📊 Valeur: 232 (0x00E8)
[2026-03-27 15:31:59.095] 📤 READ REG 0x0007 | Trame: 06 03 00 07 00 01 34 7C
[2026-03-27 15:31:59.234] 📥 READ REG 0x0007 | Réponse: 06 03 02 00 E8 0D CA
[2026-03-27 15:31:59.234] 📊 Valeur: 232 (0x00E8)
[2026-03-27 15:31:59.343] 📤 READ REG 0x0008 | Trame: 06 03 00 08 00 01 04 7F
[2026-03-27 15:31:59.487] 📥 READ REG 0x0008 | Réponse: 06 03 02 00 E8 0D CA
[2026-03-27 15:31:59.488] 📊 Valeur: 232 (0x00E8)
[2026-03-27 15:31:59.598] 📤 READ REG 0x0009 | Trame: 06 03 00 09 00 01 55 BF
[2026-03-27 15:31:59.742] 📥 READ REG 0x0009 | Réponse: 06 03 02 00 00 0D 84
[2026-03-27 15:31:59.743] 📊 Valeur: 0 (0x0000)
[2026-03-27 15:31:59.849] 📤 READ REG 0x000A | Trame: 06 03 00 0A 00 01 A5 BF
[2026-03-27 15:31:59.998] 📥 READ REG 0x000A | Réponse: 06 03 02 00 00 0D 84
[2026-03-27 15:31:59.998] 📊 Valeur: 0 (0x0000)
[2026-03-27 15:32:00.106] 📤 READ REG 0x000B | Trame: 06 03 00 0B 00 01 F4 7F
[2026-03-27 15:32:00.255] 📥 READ REG 0x000B | Réponse: 06 03 02 00 00 0D 84
[2026-03-27 15:32:00.255] 📊 Valeur: 0 (0x0000)
[2026-03-27 15:32:00.359] 📤 READ REG 0x000C | Trame: 06 03 00 0C 00 01 45 BE
[2026-03-27 15:32:00.498] 📥 READ REG 0x000C | Réponse: 06 03 02 01 00 0C 14
[2026-03-27 15:32:00.499] 📊 Valeur: 256 (0x0100)
[2026-03-27 15:32:00.609] 📤 READ REG 0x0015 | Trame: 06 03 00 15 00 01 94 79
[2026-03-27 15:32:00.751] 📥 READ REG 0x0015 | Réponse: 06 03 02 00 01 CC 44
[2026-03-27 15:32:00.751] 📊 Valeur: 1 (0x0001)
[2026-03-27 15:32:00.860] 📤 READ REG 0x0016 | Trame: 06 03 00 16 00 01 64 79
[2026-03-27 15:32:01.005] 📥 READ REG 0x0016 | Réponse: 06 03 02 00 00 0D 84
[2026-03-27 15:32:01.006] 📊 Valeur: 0 (0x0000)
[2026-03-27 15:32:01.123] 📤 READ REG 0x0017 | Trame: 06 03 00 17 00 01 35 B9
[2026-03-27 15:32:01.264] 📥 READ REG 0x0017 | Réponse: 06 03 02 00 16 8C 4A
[2026-03-27 15:32:01.264] 📊 Valeur: 22 (0x0016)
[2026-03-27 15:32:01.380] 📤 READ REG 0x2065 | Trame: 06 03 20 65 00 01 9E 62
[2026-03-27 15:32:01.520] 📥 READ REG 0x2065 | Réponse: 06 83 02 71 30
[2026-03-27 15:32:01.520] ⚠️ Réponse invalide (fonction: 0x83)
[2026-03-27 15:32:01.623] 📤 READ REG 0x2066 | Trame: 06 03 20 66 00 01 6E 62
[2026-03-27 15:32:01.762] 📥 READ REG 0x2066 | Réponse: 06 83 02 71 30
[2026-03-27 15:32:01.763] ⚠️ Réponse invalide (fonction: 0x83)
[2026-03-27 15:32:01.866] 📤 READ REG 0x2067 | Trame: 06 03 20 67 00 01 3F A2
[2026-03-27 15:32:02.012] 📥 READ REG 0x2067 | Réponse: 06 83 02 71 30
[2026-03-27 15:32:02.012] ⚠️ Réponse invalide (fonction: 0x83)
[2026-03-27 15:32:02.132] 📤 READ REG 0x2068 | Trame: 06 03 20 68 00 01 0F A1
[2026-03-27 15:32:02.271] 📥 READ REG 0x2068 | Réponse: 06 83 02 71 30
[2026-03-27 15:32:02.271] ⚠️ Réponse invalide (fonction: 0x83)
[2026-03-27 15:32:02.374] 📤 READ REG 0x2069 | Trame: 06 03 20 69 00 01 5E 61
[2026-03-27 15:32:02.512] 📥 READ REG 0x2069 | Réponse: 06 03 02 00 00 0D 84
[2026-03-27 15:32:02.513] 📊 Valeur: 0 (0x0000)
[2026-03-27 15:32:02.617] 📤 READ REG 0x206A | Trame: 06 03 20 6A 00 01 AE 61
[2026-03-27 15:32:02.763] 📥 READ REG 0x206A | Réponse: 06 03 02 00 0A 8D 83
[2026-03-27 15:32:02.764] 📊 Valeur: 10 (0x000A)
[2026-03-27 15:32:02.882] 📤 READ REG 0x206B | Trame: 06 03 20 6B 00 01 FF A1
[2026-03-27 15:32:03.022] 📥 READ REG 0x206B | Réponse: 06 83 02 71 30
[2026-03-27 15:32:03.022] ⚠️ Réponse invalide (fonction: 0x83)
[2026-03-27 15:32:03.134] 📤 READ REG 0x206C | Trame: 06 03 20 6C 00 01 4E 60
[2026-03-27 15:32:03.276] 📥 READ REG 0x206C | Réponse: 06 83 02 71 30
[2026-03-27 15:32:03.276] ⚠️ Réponse invalide (fonction: 0x83)
[2026-03-27 15:32:03.381] 📤 READ REG 0x0050 | Trame: 06 03 00 50 00 01 85 AC
[2026-03-27 15:32:03.520] 📥 READ REG 0x0050 | Réponse: 06 03 02 00 11 CD 88
[2026-03-27 15:32:03.520] 📊 Valeur: 17 (0x0011)
[2026-03-27 15:32:03.631] 📤 READ REG 0x206D | Trame: 06 03 20 6D 00 01 1F A0
[2026-03-27 15:32:03.771] 📥 READ REG 0x206D | Réponse: 06 03 02 00 01 CC 44
[2026-03-27 15:32:03.771] 📊 Valeur: 1 (0x0001)
[2026-03-27 15:32:03.887] 📤 READ REG 0x0006 | Trame: 06 03 00 06 00 01 65 BC
[2026-03-27 15:32:04.026] 📥 READ REG 0x0006 | Réponse: 06 03 02 00 E8 0D CA
[2026-03-27 15:32:04.026] 📊 Valeur: 232 (0x00E8)
[2026-03-27 15:32:04.133] 📤 READ REG 0x0007 | Trame: 06 03 00 07 00 01 34 7C
[2026-03-27 15:32:04.282] 📥 READ REG 0x0007 | Réponse: 06 03 02 00 E8 0D CA
[2026-03-27 15:32:04.282] 📊 Valeur: 232 (0x00E8)
[2026-03-27 15:32:04.401] 📤 READ REG 0x0008 | Trame: 06 03 00 08 00 01 04 7F
[2026-03-27 15:32:04.540] 📥 READ REG 0x0008 | Réponse: 06 03 02 00 E8 0D CA
[2026-03-27 15:32:04.541] 📊 Valeur: 232 (0x00E8)
[2026-03-27 15:32:04.652] 📤 READ REG 0x0009 | Trame: 06 03 00 09 00 01 55 BF
[2026-03-27 15:32:04.794] 📥 READ REG 0x0009 | Réponse: 06 03 02 00 00 0D 84
[2026-03-27 15:32:04.794] 📊 Valeur: 0 (0x0000)
[2026-03-27 15:32:04.900] 📤 READ REG 0x000A | Trame: 06 03 00 0A 00 01 A5 BF
[2026-03-27 15:32:05.049] 📥 READ REG 0x000A | Réponse: 06 03 02 00 00 0D 84
[2026-03-27 15:32:05.049] 📊 Valeur: 0 (0x0000)
[2026-03-27 15:32:05.166] 📤 READ REG 0x000B | Trame: 06 03 00 0B 00 01 F4 7F
[2026-03-27 15:32:05.306] 📥 READ REG 0x000B | Réponse: 06 03 02 00 00 0D 84
[2026-03-27 15:32:05.307] 📊 Valeur: 0 (0x0000)
[2026-03-27 15:32:05.417] 📤 READ REG 0x000C | Trame: 06 03 00 0C 00 01 45 BE
[2026-03-27 15:32:05.561] 📥 READ REG 0x000C | Réponse: 06 03 02 01 00 0C 14
[2026-03-27 15:32:05.562] 📊 Valeur: 256 (0x0100)
[2026-03-27 15:32:05.669] 📤 READ REG 0x0015 | Trame: 06 03 00 15 00 01 94 79
[2026-03-27 15:32:05.816] 📥 READ REG 0x0015 | Réponse: 06 03 02 00 01 CC 44
[2026-03-27 15:32:05.816] 📊 Valeur: 1 (0x0001)
[2026-03-27 15:32:05.919] 📤 READ REG 0x0016 | Trame: 06 03 00 16 00 01 64 79
[2026-03-27 15:32:06.058] 📥 READ REG 0x0016 | Réponse: 06 03 02 00 00 0D 84
[2026-03-27 15:32:06.058] 📊 Valeur: 0 (0x0000)
[2026-03-27 15:32:06.168] 📤 READ REG 0x0017 | Trame: 06 03 00 17 00 01 35 B9
[2026-03-27 15:32:06.312] 📥 READ REG 0x0017 | Réponse: 06 03 02 00 16 8C 4A
[2026-03-27 15:32:06.313] 📊 Valeur: 22 (0x0016)
[2026-03-27 15:32:06.420] 📤 READ REG 0x2065 | Trame: 06 03 20 65 00 01 9E 62
[2026-03-27 15:32:06.567] 📥 READ REG 0x2065 | Réponse: 06 83 02 71 30
[2026-03-27 15:32:06.567] ⚠️ Réponse invalide (fonction: 0x83)
[2026-03-27 15:32:06.685] 📤 READ REG 0x2066 | Trame: 06 03 20 66 00 01 6E 62
[2026-03-27 15:32:06.824] 📥 READ REG 0x2066 | Réponse: 06 83 02 71 30
[2026-03-27 15:32:06.825] ⚠️ Réponse invalide (fonction: 0x83)
[2026-03-27 15:32:06.935] 📤 READ REG 0x2067 | Trame: 06 03 20 67 00 01 3F A2
[2026-03-27 15:32:07.079] 📥 READ REG 0x2067 | Réponse: 06 83 02 71 30
[2026-03-27 15:32:07.080] ⚠️ Réponse invalide (fonction: 0x83)
[2026-03-27 15:32:07.194] 📤 READ REG 0x2068 | Trame: 06 03 20 68 00 01 0F A1
[2026-03-27 15:32:07.334] 📥 READ REG 0x2068 | Réponse: 06 83 02 71 30
[2026-03-27 15:32:07.334] ⚠️ Réponse invalide (fonction: 0x83)
[2026-03-27 15:32:07.451] 📤 READ REG 0x2069 | Trame: 06 03 20 69 00 01 5E 61
[2026-03-27 15:32:07.590] 📥 READ REG 0x2069 | Réponse: 06 03 02 00 00 0D 84
[2026-03-27 15:32:07.590] 📊 Valeur: 0 (0x0000)
[2026-03-27 15:32:07.704] 📤 READ REG 0x206A | Trame: 06 03 20 6A 00 01 AE 61
[2026-03-27 15:32:07.847] 📥 READ REG 0x206A | Réponse: 06 03 02 00 0A 8D 83
[2026-03-27 15:32:07.847] 📊 Valeur: 10 (0x000A)
[2026-03-27 15:32:07.957] 📤 READ REG 0x206B | Trame: 06 03 20 6B 00 01 FF A1
[2026-03-27 15:32:08.102] 📥 READ REG 0x206B | Réponse: 06 83 02 71 30
[2026-03-27 15:32:08.103] ⚠️ Réponse invalide (fonction: 0x83)
[2026-03-27 15:32:08.206] 📤 READ REG 0x206C | Trame: 06 03 20 6C 00 01 4E 60
[2026-03-27 15:32:08.346] 📥 READ REG 0x206C | Réponse: 06 83 02 71 30
[2026-03-27 15:32:08.347] ⚠️ Réponse invalide (fonction: 0x83)
[2026-03-27 15:32:08.454] 📤 READ REG 0x0050 | Trame: 06 03 00 50 00 01 85 AC
[2026-03-27 15:32:08.597] 📥 READ REG 0x0050 | Réponse: 06 03 02 00 11 CD 88
[2026-03-27 15:32:08.597] 📊 Valeur: 17 (0x0011)
[2026-03-27 15:32:08.701] 📤 READ REG 0x206D | Trame: 06 03 20 6D 00 01 1F A0
[2026-03-27 15:32:08.840] 📥 READ REG 0x206D | Réponse: 06 03 02 00 01 CC 44
[2026-03-27 15:32:08.840] 📊 Valeur: 1 (0x0001)
[2026-03-27 15:32:08.960] 📤 READ REG 0x0006 | Trame: 06 03 00 06 00 01 65 BC
[2026-03-27 15:32:09.108] 📥 READ REG 0x0006 | Réponse: 06 03 02 00 E8 0D CA
[2026-03-27 15:32:09.108] 📊 Valeur: 232 (0x00E8)
[2026-03-27 15:32:09.221] 📤 READ REG 0x0007 | Trame: 06 03 00 07 00 01 34 7C
[2026-03-27 15:32:09.364] 📥 READ REG 0x0007 | Réponse: 06 03 02 00 E7 4D CE
[2026-03-27 15:32:09.365] 📊 Valeur: 231 (0x00E7)
[2026-03-27 15:32:09.473] 📤 READ REG 0x0008 | Trame: 06 03 00 08 00 01 04 7F
[2026-03-27 15:32:09.620] 📥 READ REG 0x0008 | Réponse: 06 03 02 00 E8 0D CA
[2026-03-27 15:32:09.620] 📊 Valeur: 232 (0x00E8)
[2026-03-27 15:32:09.734] 📤 READ REG 0x0009 | Trame: 06 03 00 09 00 01 55 BF
[2026-03-27 15:32:09.876] 📥 READ REG 0x0009 | Réponse: 06 03 02 00 00 0D 84
[2026-03-27 15:32:09.877] 📊 Valeur: 0 (0x0000)
[2026-03-27 15:32:09.993] 📤 READ REG 0x000A | Trame: 06 03 00 0A 00 01 A5 BF
[2026-03-27 15:32:10.133] 📥 READ REG 0x000A | Réponse: 06 03 02 00 00 0D 84
[2026-03-27 15:32:10.133] 📊 Valeur: 0 (0x0000)
[2026-03-27 15:32:10.239] 📤 READ REG 0x000B | Trame: 06 03 00 0B 00 01 F4 7F
[2026-03-27 15:32:10.387] 📥 READ REG 0x000B | Réponse: 06 03 02 00 00 0D 84
[2026-03-27 15:32:10.388] 📊 Valeur: 0 (0x0000)
[2026-03-27 15:32:10.507] 📤 READ REG 0x000C | Trame: 06 03 00 0C 00 01 45 BE
[2026-03-27 15:32:10.647] 📥 READ REG 0x000C | Réponse: 06 03 02 01 00 0C 14
[2026-03-27 15:32:10.648] 📊 Valeur: 256 (0x0100)
[2026-03-27 15:32:10.751] 📤 READ REG 0x0015 | Trame: 06 03 00 15 00 01 94 79
[2026-03-27 15:32:10.899] 📥 READ REG 0x0015 | Réponse: 06 03 02 00 01 CC 44
[2026-03-27 15:32:10.900] 📊 Valeur: 1 (0x0001)
[2026-03-27 15:32:11.013] 📤 READ REG 0x0016 | Trame: 06 03 00 16 00 01 64 79
[2026-03-27 15:32:11.155] 📥 READ REG 0x0016 | Réponse: 06 03 02 00 00 0D 84
[2026-03-27 15:32:11.156] 📊 Valeur: 0 (0x0000)
[2026-03-27 15:32:11.271] 📤 READ REG 0x0017 | Trame: 06 03 00 17 00 01 35 B9
[2026-03-27 15:32:11.411] 📥 READ REG 0x0017 | Réponse: 06 03 02 00 16 8C 4A
[2026-03-27 15:32:11.412] 📊 Valeur: 22 (0x0016)
[2026-03-27 15:32:11.529] 📤 READ REG 0x2065 | Trame: 06 03 20 65 00 01 9E 62
[2026-03-27 15:32:11.669] 📥 READ REG 0x2065 | Réponse: 06 83 02 71 30
[2026-03-27 15:32:11.670] ⚠️ Réponse invalide (fonction: 0x83)
[2026-03-27 15:32:11.785] 📤 READ REG 0x2066 | Trame: 06 03 20 66 00 01 6E 62
[2026-03-27 15:32:11.925] 📥 READ REG 0x2066 | Réponse: 06 83 02 71 30
[2026-03-27 15:32:11.925] ⚠️ Réponse invalide (fonction: 0x83)
[2026-03-27 15:32:12.031] 📤 READ REG 0x2067 | Trame: 06 03 20 67 00 01 3F A2
[2026-03-27 15:32:12.178] 📥 READ REG 0x2067 | Réponse: 06 83 02 71 30
[2026-03-27 15:32:12.179] ⚠️ Réponse invalide (fonction: 0x83)
[2026-03-27 15:32:12.292] 📤 READ REG 0x2068 | Trame: 06 03 20 68 00 01 0F A1
[2026-03-27 15:32:12.433] 📥 READ REG 0x2068 | Réponse: 06 83 02 71 30
[2026-03-27 15:32:12.434] ⚠️ Réponse invalide (fonction: 0x83)
[2026-03-27 15:32:12.538] 📤 READ REG 0x2069 | Trame: 06 03 20 69 00 01 5E 61
[2026-03-27 15:32:12.678] 📥 READ REG 0x2069 | Réponse: 06 03 02 00 00 0D 84
[2026-03-27 15:32:12.679] 📊 Valeur: 0 (0x0000)
[2026-03-27 15:32:12.792] 📤 READ REG 0x206A | Trame: 06 03 20 6A 00 01 AE 61
[2026-03-27 15:32:12.933] 📥 READ REG 0x206A | Réponse: 06 03 02 00 0A 8D 83
[2026-03-27 15:32:12.933] 📊 Valeur: 10 (0x000A)
[2026-03-27 15:32:13.038] 📤 READ REG 0x206B | Trame: 06 03 20 6B 00 01 FF A1
[2026-03-27 15:32:13.184] 📥 READ REG 0x206B | Réponse: 06 83 02 71 30
[2026-03-27 15:32:13.184] ⚠️ Réponse invalide (fonction: 0x83)
[2026-03-27 15:32:13.293] 📤 READ REG 0x206C | Trame: 06 03 20 6C 00 01 4E 60
[2026-03-27 15:32:13.440] 📥 READ REG 0x206C | Réponse: 06 83 02 71 30
[2026-03-27 15:32:13.440] ⚠️ Réponse invalide (fonction: 0x83)
[2026-03-27 15:32:13.556] 📤 READ REG 0x0050 | Trame: 06 03 00 50 00 01 85 AC
[2026-03-27 15:32:13.696] 📥 READ REG 0x0050 | Réponse: 06 03 02 00 11 CD 88
[2026-03-27 15:32:13.696] 📊 Valeur: 17 (0x0011)
[2026-03-27 15:32:13.813] 📤 READ REG 0x206D | Trame: 06 03 20 6D 00 01 1F A0
[2026-03-27 15:32:13.953] 📥 READ REG 0x206D | Réponse: 06 03 02 00 01 CC 44
[2026-03-27 15:32:13.954] 📊 Valeur: 1 (0x0001)
[2026-03-27 15:32:14.070] 📝 WRITE REG 0x2800 = 4 | Trame: 06 06 28 00 00 04 80 1E
[2026-03-27 15:32:14.209] 📥 WRITE REG 0x2800 | Réponse: 06 06 28 00 00 04 80 1E
[2026-03-27 15:32:14.323] 📤 READ REG 0x0006 | Trame: 06 03 00 06 00 01 65 BC
[2026-03-27 15:32:14.462] 📥 READ REG 0x0006 | Réponse: 06 03 02 00 E8 0D CA
[2026-03-27 15:32:14.463] 📊 Valeur: 232 (0x00E8)
[2026-03-27 15:32:14.574] 📤 READ REG 0x0007 | Trame: 06 03 00 07 00 01 34 7C
[2026-03-27 15:32:14.717] 📥 READ REG 0x0007 | Réponse: 06 03 02 00 E8 0D CA
[2026-03-27 15:32:14.718] 📊 Valeur: 232 (0x00E8)
[2026-03-27 15:32:14.828] 📤 READ REG 0x0008 | Trame: 06 03 00 08 00 01 04 7F
[2026-03-27 15:32:14.973] 📥 READ REG 0x0008 | Réponse: 06 03 02 00 E8 0D CA
[2026-03-27 15:32:14.974] 📊 Valeur: 232 (0x00E8)
[2026-03-27 15:32:15.079] 📤 READ REG 0x0009 | Trame: 06 03 00 09 00 01 55 BF
[2026-03-27 15:32:15.218] 📥 READ REG 0x0009 | Réponse: 06 03 02 00 00 0D 84
[2026-03-27 15:32:15.218] 📊 Valeur: 0 (0x0000)
[2026-03-27 15:32:15.327] 📤 READ REG 0x000A | Trame: 06 03 00 0A 00 01 A5 BF
[2026-03-27 15:32:15.470] 📥 READ REG 0x000A | Réponse: 06 03 02 00 00 0D 84
[2026-03-27 15:32:15.471] 📊 Valeur: 0 (0x0000)
[2026-03-27 15:32:15.575] 📤 READ REG 0x000B | Trame: 06 03 00 0B 00 01 F4 7F
[2026-03-27 15:32:15.714] 📥 READ REG 0x000B | Réponse: 06 03 02 00 00 0D 84
[2026-03-27 15:32:15.715] 📊 Valeur: 0 (0x0000)
[2026-03-27 15:32:15.831] 📤 READ REG 0x000C | Trame: 06 03 00 0C 00 01 45 BE
[2026-03-27 15:32:15.971] 📥 READ REG 0x000C | Réponse: 06 03 02 01 00 0C 14
[2026-03-27 15:32:15.971] 📊 Valeur: 256 (0x0100)
[2026-03-27 15:32:16.078] 📤 READ REG 0x0015 | Trame: 06 03 00 15 00 01 94 79
[2026-03-27 15:32:16.220] 📥 READ REG 0x0015 | Réponse: 06 03 02 00 01 CC 44
[2026-03-27 15:32:16.221] 📊 Valeur: 1 (0x0001)
[2026-03-27 15:32:16.329] 📤 READ REG 0x0016 | Trame: 06 03 00 16 00 01 64 79
[2026-03-27 15:32:16.477] 📥 READ REG 0x0016 | Réponse: 06 03 02 00 00 0D 84
[2026-03-27 15:32:16.477] 📊 Valeur: 0 (0x0000)
[2026-03-27 15:32:16.590] 📤 READ REG 0x0017 | Trame: 06 03 00 17 00 01 35 B9
[2026-03-27 15:32:16.733] 📥 READ REG 0x0017 | Réponse: 06 03 02 00 16 8C 4A
[2026-03-27 15:32:16.733] 📊 Valeur: 22 (0x0016)
[2026-03-27 15:32:16.840] 📤 READ REG 0x2065 | Trame: 06 03 20 65 00 01 9E 62
[2026-03-27 15:32:16.988] 📥 READ REG 0x2065 | Réponse: 06 83 02 71 30
[2026-03-27 15:32:16.988] ⚠️ Réponse invalide (fonction: 0x83)
[2026-03-27 15:32:17.104] 📤 READ REG 0x2066 | Trame: 06 03 20 66 00 01 6E 62
[2026-03-27 15:32:17.244] 📥 READ REG 0x2066 | Réponse: 06 83 02 71 30
[2026-03-27 15:32:17.245] ⚠️ Réponse invalide (fonction: 0x83)
[2026-03-27 15:32:17.363] 📤 READ REG 0x2067 | Trame: 06 03 20 67 00 01 3F A2
[2026-03-27 15:32:17.501] 📥 READ REG 0x2067 | Réponse: 06 83 02 71 30
[2026-03-27 15:32:17.502] ⚠️ Réponse invalide (fonction: 0x83)
[2026-03-27 15:32:17.613] 📤 READ REG 0x2068 | Trame: 06 03 20 68 00 01 0F A1
[2026-03-27 15:32:17.756] 📥 READ REG 0x2068 | Réponse: 06 83 02 71 30
[2026-03-27 15:32:17.757] ⚠️ Réponse invalide (fonction: 0x83)
[2026-03-27 15:32:17.863] 📤 READ REG 0x2069 | Trame: 06 03 20 69 00 01 5E 61
[2026-03-27 15:32:18.013] 📥 READ REG 0x2069 | Réponse: 06 03 02 00 00 0D 84
[2026-03-27 15:32:18.013] 📊 Valeur: 0 (0x0000)
[2026-03-27 15:32:18.126] 📤 READ REG 0x206A | Trame: 06 03 20 6A 00 01 AE 61
[2026-03-27 15:32:18.267] 📥 READ REG 0x206A | Réponse: 06 03 02 00 0A 8D 83
[2026-03-27 15:32:18.268] 📊 Valeur: 10 (0x000A)
[2026-03-27 15:32:18.374] 📤 READ REG 0x206B | Trame: 06 03 20 6B 00 01 FF A1
[2026-03-27 15:32:18.513] 📥 READ REG 0x206B | Réponse: 06 83 02 71 30
[2026-03-27 15:32:18.513] ⚠️ Réponse invalide (fonction: 0x83)
[2026-03-27 15:32:18.630] 📤 READ REG 0x206C | Trame: 06 03 20 6C 00 01 4E 60
[2026-03-27 15:32:18.779] 📥 READ REG 0x206C | Réponse: 06 83 02 71 30
[2026-03-27 15:32:18.780] ⚠️ Réponse invalide (fonction: 0x83)
[2026-03-27 15:32:18.891] 📤 READ REG 0x0050 | Trame: 06 03 00 50 00 01 85 AC
[2026-03-27 15:32:19.035] 📥 READ REG 0x0050 | Réponse: 06 03 02 01 11 CC 18
[2026-03-27 15:32:19.036] 📊 Valeur: 273 (0x0111)
[2026-03-27 15:32:19.149] 📤 READ REG 0x206D | Trame: 06 03 20 6D 00 01 1F A0
[2026-03-27 15:32:19.290] 📥 READ REG 0x206D | Réponse: 06 03 02 00 01 CC 44
[2026-03-27 15:32:19.290] 📊 Valeur: 1 (0x0001)
[2026-03-27 15:32:19.396] 📤 READ REG 0x0006 | Trame: 06 03 00 06 00 01 65 BC
[2026-03-27 15:32:19.546] 📥 READ REG 0x0006 | Réponse: 06 03 02 00 E8 0D CA
[2026-03-27 15:32:19.546] 📊 Valeur: 232 (0x00E8)
[2026-03-27 15:32:19.666] 📤 READ REG 0x0007 | Trame: 06 03 00 07 00 01 34 7C
[2026-03-27 15:32:19.805] 📥 READ REG 0x0007 | Réponse: 06 03 02 00 E8 0D CA
[2026-03-27 15:32:19.806] 📊 Valeur: 232 (0x00E8)
[2026-03-27 15:32:19.914] 📤 READ REG 0x0008 | Trame: 06 03 00 08 00 01 04 7F
[2026-03-27 15:32:20.058] 📥 READ REG 0x0008 | Réponse: 06 03 02 00 E8 0D CA
[2026-03-27 15:32:20.058] 📊 Valeur: 232 (0x00E8)
[2026-03-27 15:32:20.164] 📤 READ REG 0x0009 | Trame: 06 03 00 09 00 01 55 BF
[2026-03-27 15:32:20.313] 📥 READ REG 0x0009 | Réponse: 06 03 02 00 00 0D 84
[2026-03-27 15:32:20.313] 📊 Valeur: 0 (0x0000)
[2026-03-27 15:32:20.417] 📤 READ REG 0x000A | Trame: 06 03 00 0A 00 01 A5 BF
[2026-03-27 15:32:20.556] 📥 READ REG 0x000A | Réponse: 06 03 02 00 00 0D 84
[2026-03-27 15:32:20.557] 📊 Valeur: 0 (0x0000)
[2026-03-27 15:32:20.666] 📤 READ REG 0x000B | Trame: 06 03 00 0B 00 01 F4 7F
[2026-03-27 15:32:20.809] 📥 READ REG 0x000B | Réponse: 06 03 02 00 00 0D 84
[2026-03-27 15:32:20.809] 📊 Valeur: 0 (0x0000)
[2026-03-27 15:32:20.927] 📤 READ REG 0x000C | Trame: 06 03 00 0C 00 01 45 BE
[2026-03-27 15:32:21.067] 📥 READ REG 0x000C | Réponse: 06 03 02 01 00 0C 14
[2026-03-27 15:32:21.067] 📊 Valeur: 256 (0x0100)
[2026-03-27 15:32:21.184] 📤 READ REG 0x0015 | Trame: 06 03 00 15 00 01 94 79
[2026-03-27 15:32:21.325] 📥 READ REG 0x0015 | Réponse: 06 03 02 00 01 CC 44
[2026-03-27 15:32:21.325] 📊 Valeur: 1 (0x0001)
[2026-03-27 15:32:21.433] 📤 READ REG 0x0016 | Trame: 06 03 00 16 00 01 64 79
[2026-03-27 15:32:21.576] 📥 READ REG 0x0016 | Réponse: 06 03 02 00 00 0D 84
[2026-03-27 15:32:21.576] 📊 Valeur: 0 (0x0000)
[2026-03-27 15:32:21.679] 📤 READ REG 0x0017 | Trame: 06 03 00 17 00 01 35 B9
[2026-03-27 15:32:21.818] 📥 READ REG 0x0017 | Réponse: 06 03 02 00 16 8C 4A
[2026-03-27 15:32:21.819] 📊 Valeur: 22 (0x0016)
[2026-03-27 15:32:21.927] 📤 READ REG 0x2065 | Trame: 06 03 20 65 00 01 9E 62
[2026-03-27 15:32:22.071] 📥 READ REG 0x2065 | Réponse: 06 83 02 71 30
[2026-03-27 15:32:22.072] ⚠️ Réponse invalide (fonction: 0x83)
[2026-03-27 15:32:22.181] 📤 READ REG 0x2066 | Trame: 06 03 20 66 00 01 6E 62
[2026-03-27 15:32:22.327] 📥 READ REG 0x2066 | Réponse: 06 83 02 71 30
[2026-03-27 15:32:22.328] ⚠️ Réponse invalide (fonction: 0x83)
[2026-03-27 15:32:22.442] 📤 READ REG 0x2067 | Trame: 06 03 20 67 00 01 3F A2
[2026-03-27 15:32:22.583] 📥 READ REG 0x2067 | Réponse: 06 83 02 71 30
[2026-03-27 15:32:22.583] ⚠️ Réponse invalide (fonction: 0x83)
[2026-03-27 15:32:22.700] 📤 READ REG 0x2068 | Trame: 06 03 20 68 00 01 0F A1
[2026-03-27 15:32:22.840] 📥 READ REG 0x2068 | Réponse: 06 83 02 71 30
[2026-03-27 15:32:22.840] ⚠️ Réponse invalide (fonction: 0x83)
[2026-03-27 15:32:22.952] 📤 READ REG 0x2069 | Trame: 06 03 20 69 00 01 5E 61
[2026-03-27 15:32:23.095] 📥 READ REG 0x2069 | Réponse: 06 03 02 00 00 0D 84
[2026-03-27 15:32:23.096] 📊 Valeur: 0 (0x0000)
[2026-03-27 15:32:23.210] 📤 READ REG 0x206A | Trame: 06 03 20 6A 00 01 AE 61
[2026-03-27 15:32:23.350] 📥 READ REG 0x206A | Réponse: 06 03 02 00 0A 8D 83
[2026-03-27 15:32:23.351] 📊 Valeur: 10 (0x000A)
[2026-03-27 15:32:23.454] 📤 READ REG 0x206B | Trame: 06 03 20 6B 00 01 FF A1
[2026-03-27 15:32:23.593] 📥 READ REG 0x206B | Réponse: 06 83 02 71 30
[2026-03-27 15:32:23.594] ⚠️ Réponse invalide (fonction: 0x83)
[2026-03-27 15:32:23.713] 📤 READ REG 0x206C | Trame: 06 03 20 6C 00 01 4E 60
[2026-03-27 15:32:23.862] 📥 READ REG 0x206C | Réponse: 06 83 02 71 30
[2026-03-27 15:32:23.862] ⚠️ Réponse invalide (fonction: 0x83)
[2026-03-27 15:32:23.972] 📤 READ REG 0x0050 | Trame: 06 03 00 50 00 01 85 AC
[2026-03-27 15:32:24.118] 📥 READ REG 0x0050 | Réponse: 06 03 02 01 11 CC 18
[2026-03-27 15:32:24.119] 📊 Valeur: 273 (0x0111)
[2026-03-27 15:32:24.231] 📤 READ REG 0x206D | Trame: 06 03 20 6D 00 01 1F A0
[2026-03-27 15:32:24.373] 📥 READ REG 0x206D | Réponse: 06 03 02 00 01 CC 44
[2026-03-27 15:32:24.374] 📊 Valeur: 1 (0x0001)
[2026-03-27 15:32:24.477] 🔧 TENTATIVE: Régler sous-tension Source I = 170 V
[2026-03-27 15:32:24.478] 📤 READ REG 0x0050 | Trame: 06 03 00 50 00 01 85 AC
[2026-03-27 15:32:24.618] 📥 READ REG 0x0050 | Réponse: 06 03 02 01 11 CC 18
[2026-03-27 15:32:24.618] 📊 Valeur: 273 (0x0111)
[2026-03-27 15:32:24.730] 📡 Statut télécommande: ACTIVÉE
[2026-03-27 15:32:24.731] 📝 WRITE REG 0x2065 = 170 | Trame: 06 06 20 65 00 AA 13 DD
[2026-03-27 15:32:24.870] 📥 WRITE REG 0x2065 | Réponse: 06 86 02 72 60
[2026-03-27 15:32:24.976] ✅ SUCCÈS: Sous-tension Source I = 170 V
[2026-03-27 15:32:24.977] 📤 READ REG 0x0006 | Trame: 06 03 00 06 00 01 65 BC
[2026-03-27 15:32:25.124] 📥 READ REG 0x0006 | Réponse: 06 03 02 00 E8 0D CA
[2026-03-27 15:32:25.124] 📊 Valeur: 232 (0x00E8)
[2026-03-27 15:32:25.233] 📤 READ REG 0x0007 | Trame: 06 03 00 07 00 01 34 7C
[2026-03-27 15:32:25.380] 📥 READ REG 0x0007 | Réponse: 06 03 02 00 E8 0D CA
[2026-03-27 15:32:25.380] 📊 Valeur: 232 (0x00E8)
[2026-03-27 15:32:25.493] 📤 READ REG 0x0008 | Trame: 06 03 00 08 00 01 04 7F
[2026-03-27 15:32:25.634] 📥 READ REG 0x0008 | Réponse: 06 03 02 00 E8 0D CA
[2026-03-27 15:32:25.635] 📊 Valeur: 232 (0x00E8)
[2026-03-27 15:32:25.749] 📤 READ REG 0x0009 | Trame: 06 03 00 09 00 01 55 BF
[2026-03-27 15:32:25.891] 📥 READ REG 0x0009 | Réponse: 06 03 02 00 00 0D 84
[2026-03-27 15:32:25.891] 📊 Valeur: 0 (0x0000)
[2026-03-27 15:32:26.006] 📤 READ REG 0x000A | Trame: 06 03 00 0A 00 01 A5 BF
[2026-03-27 15:32:26.147] 📥 READ REG 0x000A | Réponse: 06 03 02 00 00 0D 84
[2026-03-27 15:32:26.147] 📊 Valeur: 0 (0x0000)
[2026-03-27 15:32:26.264] 📤 READ REG 0x000B | Trame: 06 03 00 0B 00 01 F4 7F
[2026-03-27 15:32:26.404] 📥 READ REG 0x000B | Réponse: 06 03 02 00 00 0D 84
[2026-03-27 15:32:26.404] 📊 Valeur: 0 (0x0000)
[2026-03-27 15:32:26.521] 📤 READ REG 0x000C | Trame: 06 03 00 0C 00 01 45 BE
[2026-03-27 15:32:26.660] 📥 READ REG 0x000C | Réponse: 06 03 02 01 00 0C 14
[2026-03-27 15:32:26.661] 📊 Valeur: 256 (0x0100)
[2026-03-27 15:32:26.778] 📤 READ REG 0x0015 | Trame: 06 03 00 15 00 01 94 79
[2026-03-27 15:32:26.917] 📥 READ REG 0x0015 | Réponse: 06 03 02 00 01 CC 44
[2026-03-27 15:32:26.918] 📊 Valeur: 1 (0x0001)
[2026-03-27 15:32:27.024] 📤 READ REG 0x0016 | Trame: 06 03 00 16 00 01 64 79
[2026-03-27 15:32:27.170] 📥 READ REG 0x0016 | Réponse: 06 03 02 00 00 0D 84
[2026-03-27 15:32:27.170] 📊 Valeur: 0 (0x0000)
[2026-03-27 15:32:27.281] 📤 READ REG 0x0017 | Trame: 06 03 00 17 00 01 35 B9
[2026-03-27 15:32:27.426] 📥 READ REG 0x0017 | Réponse: 06 03 02 00 16 8C 4A
[2026-03-27 15:32:27.426] 📊 Valeur: 22 (0x0016)
[2026-03-27 15:32:27.540] 📤 READ REG 0x2065 | Trame: 06 03 20 65 00 01 9E 62
[2026-03-27 15:32:27.681] 📥 READ REG 0x2065 | Réponse: 06 83 02 71 30
[2026-03-27 15:32:27.681] ⚠️ Réponse invalide (fonction: 0x83)
[2026-03-27 15:32:27.808] 📤 READ REG 0x2066 | Trame: 06 03 20 66 00 01 6E 62
[2026-03-27 15:32:27.953] 📥 READ REG 0x2066 | Réponse: 06 83 02 71 30
[2026-03-27 15:32:27.954] ⚠️ Réponse invalide (fonction: 0x83)
[2026-03-27 15:32:28.058] 📤 READ REG 0x2067 | Trame: 06 03 20 67 00 01 3F A2
[2026-03-27 15:32:28.196] 📥 READ REG 0x2067 | Réponse: 06 83 02 71 30
[2026-03-27 15:32:28.196] ⚠️ Réponse invalide (fonction: 0x83)
[2026-03-27 15:32:28.311] 📤 READ REG 0x2068 | Trame: 06 03 20 68 00 01 0F A1
[2026-03-27 15:32:28.450] 📥 READ REG 0x2068 | Réponse: 06 83 02 71 30
[2026-03-27 15:32:28.450] ⚠️ Réponse invalide (fonction: 0x83)
[2026-03-27 15:32:28.557] 📤 READ REG 0x2069 | Trame: 06 03 20 69 00 01 5E 61
[2026-03-27 15:32:28.704] 📥 READ REG 0x2069 | Réponse: 06 03 02 00 00 0D 84
[2026-03-27 15:32:28.704] 📊 Valeur: 0 (0x0000)
[2026-03-27 15:32:28.822] 📤 READ REG 0x206A | Trame: 06 03 20 6A 00 01 AE 61
[2026-03-27 15:32:28.962] 📥 READ REG 0x206A | Réponse: 06 03 02 00 0A 8D 83
[2026-03-27 15:32:28.962] 📊 Valeur: 10 (0x000A)
[2026-03-27 15:32:29.075] 📤 READ REG 0x206B | Trame: 06 03 20 6B 00 01 FF A1
[2026-03-27 15:32:29.216] 📥 READ REG 0x206B | Réponse: 06 83 02 71 30
[2026-03-27 15:32:29.217] ⚠️ Réponse invalide (fonction: 0x83)
[2026-03-27 15:32:29.325] 📤 READ REG 0x206C | Trame: 06 03 20 6C 00 01 4E 60
[2026-03-27 15:32:29.473] 📥 READ REG 0x206C | Réponse: 06 83 02 71 30
[2026-03-27 15:32:29.473] ⚠️ Réponse invalide (fonction: 0x83)
[2026-03-27 15:32:29.586] 📤 READ REG 0x0050 | Trame: 06 03 00 50 00 01 85 AC
[2026-03-27 15:32:29.727] 📥 READ REG 0x0050 | Réponse: 06 03 02 01 11 CC 18
